
**** 12/21/20 11:29:10 ********* PSpice 9.2 (Mar 2000) ******** ID# 1 ********

 ** Profile: "SCHEMATIC1-dc"  [ C:\USERS\M R\DESKTOP\az madar elec\s07\pishGozaresh1\pish1-SCHEMATIC1-dc.sim ] 


 ****     CIRCUIT DESCRIPTION


******************************************************************************




** Creating circuit file "pish1-SCHEMATIC1-dc.sim.cir" 
** WARNING: THIS AUTOMATICALLY GENERATED FILE MAY BE OVERWRITTEN BY SUBSEQUENT SIMULATIONS

*Libraries: 
* Local Libraries :
* From [PSPICE NETLIST] section of C:\Program Files\Orcad\PSpice\PSpice.ini file:
.lib "nom.lib" 

*Analysis directives: 
.PROBE V(*) I(*) W(*) D(*) NOISE(*) 
.INC ".\pish1-SCHEMATIC1.net" 



**** INCLUDING pish1-SCHEMATIC1.net ****
* source PISH1
R_R1         N00075 N00109  10k  
C_C1         0 N00109  100n  
R_R2         0 N00109  5.6k  
V_V2         N00075 0 1Vdc

**** RESUMING pish1-SCHEMATIC1-dc.sim.cir ****
.END

**** 12/21/20 11:29:10 ********* PSpice 9.2 (Mar 2000) ******** ID# 1 ********

 ** Profile: "SCHEMATIC1-dc"  [ C:\USERS\M R\DESKTOP\az madar elec\s07\pishGozaresh1\pish1-SCHEMATIC1-dc.sim ] 


 ****     SMALL SIGNAL BIAS SOLUTION       TEMPERATURE =   27.000 DEG C


******************************************************************************



 NODE   VOLTAGE     NODE   VOLTAGE     NODE   VOLTAGE     NODE   VOLTAGE


(N00075)    1.0000 (N00109)     .3590 




    VOLTAGE SOURCE CURRENTS
    NAME         CURRENT

    V_V2        -6.410E-05

    TOTAL POWER DISSIPATION   6.41E-05  WATTS



          JOB CONCLUDED

          TOTAL JOB TIME             .17
