
**** 12/23/20 12:34:07 ********* PSpice 9.2 (Mar 2000) ******** ID# 1 ********

 ** Profile: "SCHEMATIC1-tes"  [ C:\USERS\M R\DESKTOP\az madar elec\s07\azmayesh5\az5-SCHEMATIC1-tes.sim ] 


 ****     CIRCUIT DESCRIPTION


******************************************************************************




** Creating circuit file "az5-SCHEMATIC1-tes.sim.cir" 
** WARNING: THIS AUTOMATICALLY GENERATED FILE MAY BE OVERWRITTEN BY SUBSEQUENT SIMULATIONS

*Libraries: 
* Local Libraries :
* From [PSPICE NETLIST] section of C:\Program Files\Orcad\PSpice\PSpice.ini file:
.lib "nom.lib" 

*Analysis directives: 
.TRAN  0 4ms 0 
.PROBE V(*) I(*) W(*) D(*) NOISE(*) 
.INC ".\az5-SCHEMATIC1.net" 



**** INCLUDING az5-SCHEMATIC1.net ****
* source AZ5
C_C1         0 N00152  100n  
R_R2         N00125 N00224  10k  
C_C2         N00125 0  100n  
R_R1         N00152 N00125  10k  
V_V3         N00224 0  
+PULSE 2 -2 0 1n 1n 0.25m 0.5m

**** RESUMING az5-SCHEMATIC1-tes.sim.cir ****
.END

**** 12/23/20 12:34:07 ********* PSpice 9.2 (Mar 2000) ******** ID# 1 ********

 ** Profile: "SCHEMATIC1-tes"  [ C:\USERS\M R\DESKTOP\az madar elec\s07\azmayesh5\az5-SCHEMATIC1-tes.sim ] 


 ****     INITIAL TRANSIENT SOLUTION       TEMPERATURE =   27.000 DEG C


******************************************************************************



 NODE   VOLTAGE     NODE   VOLTAGE     NODE   VOLTAGE     NODE   VOLTAGE


(N00125)    2.0000 (N00152)    2.0000 (N00224)    2.0000 




    VOLTAGE SOURCE CURRENTS
    NAME         CURRENT

    V_V3         0.000E+00

    TOTAL POWER DISSIPATION   0.00E+00  WATTS



          JOB CONCLUDED

          TOTAL JOB TIME             .06
