
**** 11/30/20 02:16:21 ********* PSpice 9.2 (Mar 2000) ******** ID# 1 ********

 ** Profile: "SCHEMATIC1-tes"  [ C:\USERS\M R\DESKTOP\AZ MADAR ELEC\6\S06\pishgozaresh\pish-SCHEMATIC1-tes.sim ] 


 ****     CIRCUIT DESCRIPTION


******************************************************************************




** Creating circuit file "pish-SCHEMATIC1-tes.sim.cir" 
** WARNING: THIS AUTOMATICALLY GENERATED FILE MAY BE OVERWRITTEN BY SUBSEQUENT SIMULATIONS

*Libraries: 
* Local Libraries :
* From [PSPICE NETLIST] section of C:\Program Files\Orcad\PSpice\PSpice.ini file:
.lib "nom.lib" 

*Analysis directives: 
.TRAN  0 0.1ms 0 
.PROBE V(*) I(*) W(*) D(*) NOISE(*) 
.INC ".\pish-SCHEMATIC1.net" 



**** INCLUDING pish-SCHEMATIC1.net ****
* source PISH
L_L1         N00127 N00181  18m  
R_R1         N00208 N00181  4.7k  
V_V1         N00127 0  
+PULSE -2 2 0 1n 1n 0.1m 0.2m
C_C1         0 N00208  68p  

**** RESUMING pish-SCHEMATIC1-tes.sim.cir ****
.END

**** 11/30/20 02:16:21 ********* PSpice 9.2 (Mar 2000) ******** ID# 1 ********

 ** Profile: "SCHEMATIC1-tes"  [ C:\USERS\M R\DESKTOP\AZ MADAR ELEC\6\S06\pishgozaresh\pish-SCHEMATIC1-tes.sim ] 


 ****     INITIAL TRANSIENT SOLUTION       TEMPERATURE =   27.000 DEG C


******************************************************************************



 NODE   VOLTAGE     NODE   VOLTAGE     NODE   VOLTAGE     NODE   VOLTAGE


(N00127)   -2.0000 (N00181)   -2.0000 (N00208)   -2.0000 




    VOLTAGE SOURCE CURRENTS
    NAME         CURRENT

    V_V1         0.000E+00

    TOTAL POWER DISSIPATION   0.00E+00  WATTS



          JOB CONCLUDED

          TOTAL JOB TIME             .02
