
**** 10/12/20 12:18:34 ********* PSpice 9.2 (Mar 2000) ******** ID# 1 ********

 ** Profile: "SCHEMATIC1-q4-simulat"  [ C:\USERS\M R\DESKTOP\AZ MADAR ELEC\pishgozaresh\q3\q4_pishgozaresh-SCHEMATIC1-q4-simulat.sim 


 ****     CIRCUIT DESCRIPTION


******************************************************************************




** Creating circuit file "q4_pishgozaresh-SCHEMATIC1-q4-simulat.sim.cir" 
** WARNING: THIS AUTOMATICALLY GENERATED FILE MAY BE OVERWRITTEN BY SUBSEQUENT SIMULATIONS

*Libraries: 
* Local Libraries :
* From [PSPICE NETLIST] section of C:\Program Files\Orcad\PSpice\PSpice.ini file:
.lib "nom.lib" 

*Analysis directives: 
.PROBE V(*) I(*) W(*) D(*) NOISE(*) 
.INC ".\q4_pishgozaresh-SCHEMATIC1.net" 



**** INCLUDING q4_pishgozaresh-SCHEMATIC1.net ****
* source Q4_PISHGOZARESH
V_V1         N00173 0 3
R_R8         N01769 0  2.2k  
V_V2         0 N00255 1.5
R_R9         0 N01769  5.6k  
R_R4         0 N01376  1k  
R_R5         N01376 N01434  2.2k  
R_R1         N00173 N00203  1k  
R_R6         0 N01376  5.6k  
R_R2         N00203 N00255  2.2k  
V_V3         0 N01434 1.5
R_R3         0 N00203  5.6k  
V_V4         N01739 0 3
R_R7         N01739 N01769  1k  

**** RESUMING q4_pishgozaresh-SCHEMATIC1-q4-simulat.sim.cir ****
.END

**** 10/12/20 12:18:34 ********* PSpice 9.2 (Mar 2000) ******** ID# 1 ********

 ** Profile: "SCHEMATIC1-q4-simulat"  [ C:\USERS\M R\DESKTOP\AZ MADAR ELEC\pishgozaresh\q3\q4_pishgozaresh-SCHEMATIC1-q4-simulat.sim 


 ****     SMALL SIGNAL BIAS SOLUTION       TEMPERATURE =   27.000 DEG C


******************************************************************************



 NODE   VOLTAGE     NODE   VOLTAGE     NODE   VOLTAGE     NODE   VOLTAGE


(N00173)    3.0000 (N00203)    1.4195 (N00255)   -1.5000 (N01376)    -.4175     

(N01434)   -1.5000 (N01739)    3.0000 (N01769)    1.8370 




    VOLTAGE SOURCE CURRENTS
    NAME         CURRENT

    V_V1        -1.581E-03
    V_V2        -1.327E-03
    V_V3        -4.920E-04
    V_V4        -1.163E-03

    TOTAL POWER DISSIPATION   1.10E-02  WATTS



          JOB CONCLUDED

          TOTAL JOB TIME             .06
