
**** 01/03/21 23:39:13 ********* PSpice 9.2 (Mar 2000) ******** ID# 1 ********

 ** Profile: "SCHEMATIC1-tes2"  [ C:\USERS\M R\DESKTOP\AZ MADAR ELEC\s09\az4\az4-SCHEMATIC1-tes2.sim ] 


 ****     CIRCUIT DESCRIPTION


******************************************************************************




** Creating circuit file "az4-SCHEMATIC1-tes2.sim.cir" 
** WARNING: THIS AUTOMATICALLY GENERATED FILE MAY BE OVERWRITTEN BY SUBSEQUENT SIMULATIONS

*Libraries: 
* Local Libraries :
* From [PSPICE NETLIST] section of C:\Program Files\Orcad\PSpice\PSpice.ini file:
.lib "nom.lib" 

*Analysis directives: 
.TRAN  0 1ms 0 1u 
.PROBE V(*) I(*) W(*) D(*) NOISE(*) 
.INC ".\az4-SCHEMATIC1.net" 



**** INCLUDING az4-SCHEMATIC1.net ****
* source AZ4
M_M1         N00427 N00606 0 0 M2N7000
C_C2         N00799 N00606  10u  
R_R1         N00427 N00529  5k  
V_V2         N00799 0  
+SIN 0 10m 1k 0 0 0
R_R2         0 N00487  100meg  
R_R3         N00529 N00606  47k  
R_R4         N00606 0  10.5k  
V_V1         N00529 0 10Vdc
C_C1         N00427 N00487  10u  

**** RESUMING az4-SCHEMATIC1-tes2.sim.cir ****
.END

**** 01/03/21 23:39:13 ********* PSpice 9.2 (Mar 2000) ******** ID# 1 ********

 ** Profile: "SCHEMATIC1-tes2"  [ C:\USERS\M R\DESKTOP\AZ MADAR ELEC\s09\az4\az4-SCHEMATIC1-tes2.sim ] 


 ****     MOSFET MODEL PARAMETERS


******************************************************************************




               M2N7000         
               NMOS            
       LEVEL    3            
           L    2.000000E-06 
           W     .12         
         VTO    1.73         
          KP    1.073000E-06 
       GAMMA    0            
         PHI     .6          
      LAMBDA    0            
          RD     .5489       
          RS     .02         
          RG  546.2          
          RB    1.000000E-03 
         RDS   48.000000E+06 
          IS   10.000000E-15 
          JS    0            
          PB     .8          
        PBSW     .8          
         CBD   74.460000E-12 
          CJ    0            
        CJSW    0            
        CGSO   73.610000E-12 
        CGDO    6.487000E-12 
        CGBO    0            
         TOX    2.000000E-06 
          XJ    0            
       UCRIT   10.000000E+03 
       DELTA    0            
         ETA    0            
      DIOMOD    1            
         VFB    0            
        LETA    0            
        WETA    0            
          U0    0            
        TEMP    0            
         VDD    0            
       XPART    0            


**** 01/03/21 23:39:13 ********* PSpice 9.2 (Mar 2000) ******** ID# 1 ********

 ** Profile: "SCHEMATIC1-tes2"  [ C:\USERS\M R\DESKTOP\AZ MADAR ELEC\s09\az4\az4-SCHEMATIC1-tes2.sim ] 


 ****     INITIAL TRANSIENT SOLUTION       TEMPERATURE =   27.000 DEG C


******************************************************************************



 NODE   VOLTAGE     NODE   VOLTAGE     NODE   VOLTAGE     NODE   VOLTAGE


(N00427)    8.5133 (N00487)    0.0000 (N00529)   10.0000 (N00606)    1.8261     

(N00799)    0.0000 




    VOLTAGE SOURCE CURRENTS
    NAME         CURRENT

    V_V2         0.000E+00
    V_V1        -4.713E-04

    TOTAL POWER DISSIPATION   4.71E-03  WATTS



          JOB CONCLUDED

          TOTAL JOB TIME             .08
