
**** 11/30/20 02:48:58 ********* PSpice 9.2 (Mar 2000) ******** ID# 1 ********

 ** Profile: "SCHEMATIC1-test"  [ C:\Users\M R\Desktop\az madar elec\6\s06\azmayesh 5\az5-schematic1-test.sim ] 


 ****     CIRCUIT DESCRIPTION


******************************************************************************




** Creating circuit file "az5-schematic1-test.sim.cir" 
** WARNING: THIS AUTOMATICALLY GENERATED FILE MAY BE OVERWRITTEN BY SUBSEQUENT SIMULATIONS

*Libraries: 
* Local Libraries :
* From [PSPICE NETLIST] section of C:\Program Files\Orcad\PSpice\PSpice.ini file:
.lib "nom.lib" 

*Analysis directives: 
.TRAN  0 0.5ms 0 
.PROBE V(*) I(*) W(*) D(*) NOISE(*) 
.INC ".\az5-SCHEMATIC1.net" 



**** INCLUDING az5-SCHEMATIC1.net ****
* source AZ5
L_L1         N00945 N01169  18m  
V_V1         N00945 0  
+PULSE -2 2 0 1n 1n 0.5m 1m
C_C1         0 N00903  680p  
R_R1         N00903 N01169  0.8k  

**** RESUMING az5-schematic1-test.sim.cir ****
.END

**** 11/30/20 02:48:58 ********* PSpice 9.2 (Mar 2000) ******** ID# 1 ********

 ** Profile: "SCHEMATIC1-test"  [ C:\Users\M R\Desktop\az madar elec\6\s06\azmayesh 5\az5-schematic1-test.sim ] 


 ****     INITIAL TRANSIENT SOLUTION       TEMPERATURE =   27.000 DEG C


******************************************************************************



 NODE   VOLTAGE     NODE   VOLTAGE     NODE   VOLTAGE     NODE   VOLTAGE


(N00903)   -2.0000 (N00945)   -2.0000 (N01169)   -2.0000 




    VOLTAGE SOURCE CURRENTS
    NAME         CURRENT

    V_V1         0.000E+00

    TOTAL POWER DISSIPATION   0.00E+00  WATTS



          JOB CONCLUDED

          TOTAL JOB TIME             .03
