
**** 11/09/20 00:38:43 ********* PSpice 9.2 (Mar 2000) ******** ID# 1 ********

 ** Profile: "SCHEMATIC1-test1"  [ C:\Users\M R\Desktop\az madar elec\s05\part1\azmayesh 2\q2-SCHEMATIC1-test1.sim ] 


 ****     CIRCUIT DESCRIPTION


******************************************************************************




** Creating circuit file "q2-SCHEMATIC1-test1.sim.cir" 
** WARNING: THIS AUTOMATICALLY GENERATED FILE MAY BE OVERWRITTEN BY SUBSEQUENT SIMULATIONS

*Libraries: 
* Local Libraries :
* From [PSPICE NETLIST] section of C:\Program Files\Orcad\PSpice\PSpice.ini file:
.lib "nom.lib" 

*Analysis directives: 
.TRAN  0 30ms 0 
.PROBE V(*) I(*) W(*) D(*) NOISE(*) 
.INC ".\q2-SCHEMATIC1.net" 



**** INCLUDING q2-SCHEMATIC1.net ****
* source Q2
V_V1         N00393 0  
+PULSE 2 -2 0 1n 1n 7.5m 15m
R_R1         N00393 N00447  10k  
C_C1         0 N00447  100n  
C_C2         N00393 N00447  10n  

**** RESUMING q2-SCHEMATIC1-test1.sim.cir ****
.END

**** 11/09/20 00:38:43 ********* PSpice 9.2 (Mar 2000) ******** ID# 1 ********

 ** Profile: "SCHEMATIC1-test1"  [ C:\Users\M R\Desktop\az madar elec\s05\part1\azmayesh 2\q2-SCHEMATIC1-test1.sim ] 


 ****     INITIAL TRANSIENT SOLUTION       TEMPERATURE =   27.000 DEG C


******************************************************************************



 NODE   VOLTAGE     NODE   VOLTAGE     NODE   VOLTAGE     NODE   VOLTAGE


(N00393)    2.0000 (N00447)    2.0000 




    VOLTAGE SOURCE CURRENTS
    NAME         CURRENT

    V_V1         0.000E+00

    TOTAL POWER DISSIPATION   0.00E+00  WATTS



          JOB CONCLUDED

          TOTAL JOB TIME             .03
