
**** 11/09/20 03:35:45 ********* PSpice 9.2 (Mar 2000) ******** ID# 1 ********

 ** Profile: "SCHEMATIC1-test1"  [ C:\Users\M R\Desktop\az madar elec\s05\part2\azmayesh3\q3-SCHEMATIC1-test1.sim ] 


 ****     CIRCUIT DESCRIPTION


******************************************************************************




** Creating circuit file "q3-SCHEMATIC1-test1.sim.cir" 
** WARNING: THIS AUTOMATICALLY GENERATED FILE MAY BE OVERWRITTEN BY SUBSEQUENT SIMULATIONS

*Libraries: 
* Local Libraries :
* From [PSPICE NETLIST] section of C:\Program Files\Orcad\PSpice\PSpice.ini file:
.lib "nom.lib" 

*Analysis directives: 
.TRAN  0 40ms 0 
.PROBE V(*) I(*) W(*) D(*) NOISE(*) 
.INC ".\q3-SCHEMATIC1.net" 



**** INCLUDING q3-SCHEMATIC1.net ****
* source Q3
V_V1         N00241 0  
+PULSE -2 2 0 1n 1n 10m 20m
C_C1         0 N00295  100n  
C_C2         N00347 N00295  10n  
R_R1         N00241 N00295  10k  
R_R2         0 N00347  10k  

**** RESUMING q3-SCHEMATIC1-test1.sim.cir ****
.END

**** 11/09/20 03:35:45 ********* PSpice 9.2 (Mar 2000) ******** ID# 1 ********

 ** Profile: "SCHEMATIC1-test1"  [ C:\Users\M R\Desktop\az madar elec\s05\part2\azmayesh3\q3-SCHEMATIC1-test1.sim ] 


 ****     INITIAL TRANSIENT SOLUTION       TEMPERATURE =   27.000 DEG C


******************************************************************************



 NODE   VOLTAGE     NODE   VOLTAGE     NODE   VOLTAGE     NODE   VOLTAGE


(N00241)   -2.0000 (N00295)   -2.0000 (N00347)    0.0000 




    VOLTAGE SOURCE CURRENTS
    NAME         CURRENT

    V_V1         0.000E+00

    TOTAL POWER DISSIPATION   0.00E+00  WATTS



          JOB CONCLUDED

          TOTAL JOB TIME             .03
