
**** 01/21/21 03:37:28 ********* PSpice 9.2 (Mar 2000) ******** ID# 1 ********

 ** Profile: "SCHEMATIC1-test"  [ C:\USERS\M R\DESKTOP\AZ MADAR ELEC\s10\pish2\pish2-SCHEMATIC1-test.sim ] 


 ****     CIRCUIT DESCRIPTION


******************************************************************************




** Creating circuit file "pish2-SCHEMATIC1-test.sim.cir" 
** WARNING: THIS AUTOMATICALLY GENERATED FILE MAY BE OVERWRITTEN BY SUBSEQUENT SIMULATIONS

*Libraries: 
* Local Libraries :
* From [PSPICE NETLIST] section of C:\Program Files\Orcad\PSpice\PSpice.ini file:
.lib "nom.lib" 

*Analysis directives: 
.TRAN  0 3ms 0 3u 
.PROBE V(*) I(*) W(*) D(*) NOISE(*) 
.INC ".\pish2-SCHEMATIC1.net" 



**** INCLUDING pish2-SCHEMATIC1.net ****
* source PISH2
X_U1         0 N00429 N00222 N000033 N00510 LM741
V_V3         N00617 0  
+SIN 0 1 1k 0 0 0
R_R1         N00617 N00429  1k  
R_R2         N00429 N00510  5.6k  
V_V1         0 N000033 9
V_V2         N00222 0 9

**** RESUMING pish2-SCHEMATIC1-test.sim.cir ****
.END

**** 01/21/21 03:37:28 ********* PSpice 9.2 (Mar 2000) ******** ID# 1 ********

 ** Profile: "SCHEMATIC1-test"  [ C:\USERS\M R\DESKTOP\AZ MADAR ELEC\s10\pish2\pish2-SCHEMATIC1-test.sim ] 


 ****     Diode MODEL PARAMETERS


******************************************************************************




               X_U1.x_lm741.dx X_U1.x_lm741.dy 
          IS  800.000000E-18  800.000000E-18 
          RS    1               1.000000E-03 
         CJO                   10.000000E-12 


**** 01/21/21 03:37:28 ********* PSpice 9.2 (Mar 2000) ******** ID# 1 ********

 ** Profile: "SCHEMATIC1-test"  [ C:\USERS\M R\DESKTOP\AZ MADAR ELEC\s10\pish2\pish2-SCHEMATIC1-test.sim ] 


 ****     BJT MODEL PARAMETERS


******************************************************************************




               X_U1.x_lm741.qx 
               NPN             
          IS  800.000000E-18 
          BF   93.75         
          NF    1            
          BR    1            
          NR    1            
          CN    2.42         
           D     .87         


**** 01/21/21 03:37:28 ********* PSpice 9.2 (Mar 2000) ******** ID# 1 ********

 ** Profile: "SCHEMATIC1-test"  [ C:\USERS\M R\DESKTOP\AZ MADAR ELEC\s10\pish2\pish2-SCHEMATIC1-test.sim ] 


 ****     INITIAL TRANSIENT SOLUTION       TEMPERATURE =   27.000 DEG C


******************************************************************************



 NODE   VOLTAGE     NODE   VOLTAGE     NODE   VOLTAGE     NODE   VOLTAGE


(N00222)    9.0000 (N00429) 19.25E-06 (N00510) 573.7E-06 (N00617)    0.0000     

(N000033)   -9.0000                   (X_U1.x_lm741.6)-55.75E-09                

(X_U1.x_lm741.7) 578.7E-06            (X_U1.x_lm741.8) 578.7E-06                

(X_U1.x_lm741.9)    0.0000            (X_U1.x_lm741.10)    -.6077               

(X_U1.x_lm741.11)    8.9603           (X_U1.x_lm741.12)    8.9603               

(X_U1.x_lm741.13)    -.5938           (X_U1.x_lm741.14)    -.5938               

(X_U1.x_lm741.53)    8.0000           (X_U1.x_lm741.54)   -8.0000               

(X_U1.x_lm741.90) 99.01E-06           (X_U1.x_lm741.91)   40.0000               

(X_U1.x_lm741.92)  -40.0000           (X_U1.x_lm741.99)    0.0000           




    VOLTAGE SOURCE CURRENTS
    NAME         CURRENT

    V_V3         1.925E-08
    V_V1        -1.006E-03
    V_V2        -1.006E-03
    X_U1.x_lm741.vb  -5.575E-13
    X_U1.x_lm741.vc   8.000E-12
    X_U1.x_lm741.ve   8.185E-12
    X_U1.x_lm741.vlim   9.901E-08
    X_U1.x_lm741.vlp  -4.000E-11
    X_U1.x_lm741.vln  -4.000E-11

    TOTAL POWER DISSIPATION   1.81E-02  WATTS



          JOB CONCLUDED

          TOTAL JOB TIME             .30
