
**** 01/03/21 22:03:03 ********* PSpice 9.2 (Mar 2000) ******** ID# 1 ********

 ** Profile: "SCHEMATIC1-tes2"  [ C:\USERS\M R\DESKTOP\AZ MADAR ELEC\s09\az1\az1-SCHEMATIC1-tes2.sim ] 


 ****     CIRCUIT DESCRIPTION


******************************************************************************




** Creating circuit file "az1-SCHEMATIC1-tes2.sim.cir" 
** WARNING: THIS AUTOMATICALLY GENERATED FILE MAY BE OVERWRITTEN BY SUBSEQUENT SIMULATIONS

*Libraries: 
* Local Libraries :
* From [PSPICE NETLIST] section of C:\Program Files\Orcad\PSpice\PSpice.ini file:
.lib "nom.lib" 

*Analysis directives: 
.PROBE V(*) I(*) W(*) D(*) NOISE(*) 
.INC ".\az1-SCHEMATIC1.net" 



**** INCLUDING az1-SCHEMATIC1.net ****
* source AZ1
M_M1         N000032 N00253 N000030 N000030 M2N7000
M_M2         N004972 N00826 N004970 N004970 M2N7000
V_V3         N00771 0 10Vdc
R_R1         N000032 N00319  100  
R_R3         N004972 N00771  100  
R_R2         0 N000030  150  
R_R4         0 N004970  150  
R_R5         0 N00826  123.214k  
R_R6         N00826 N00771  100k  
V_V1         N00319 0 10Vdc
V_V2         N00253 0 0Vdc

**** RESUMING az1-SCHEMATIC1-tes2.sim.cir ****
.END

**** 01/03/21 22:03:03 ********* PSpice 9.2 (Mar 2000) ******** ID# 1 ********

 ** Profile: "SCHEMATIC1-tes2"  [ C:\USERS\M R\DESKTOP\AZ MADAR ELEC\s09\az1\az1-SCHEMATIC1-tes2.sim ] 


 ****     MOSFET MODEL PARAMETERS


******************************************************************************




               M2N7000         
               NMOS            
       LEVEL    3            
           L    2.000000E-06 
           W     .12         
         VTO    1.73         
          KP    1.073000E-06 
       GAMMA    0            
         PHI     .6          
      LAMBDA    0            
          RD     .5489       
          RS     .02         
          RG  546.2          
          RB    1.000000E-03 
         RDS   48.000000E+06 
          IS   10.000000E-15 
          JS    0            
          PB     .8          
        PBSW     .8          
         CBD   74.460000E-12 
          CJ    0            
        CJSW    0            
        CGSO   73.610000E-12 
        CGDO    6.487000E-12 
        CGBO    0            
         TOX    2.000000E-06 
          XJ    0            
       UCRIT   10.000000E+03 
       DELTA    0            
         ETA    0            
      DIOMOD    1            
         VFB    0            
        LETA    0            
        WETA    0            
          U0    0            
        TEMP    0            
         VDD    0            
       XPART    0            


**** 01/03/21 22:03:03 ********* PSpice 9.2 (Mar 2000) ******** ID# 1 ********

 ** Profile: "SCHEMATIC1-tes2"  [ C:\USERS\M R\DESKTOP\AZ MADAR ELEC\s09\az1\az1-SCHEMATIC1-tes2.sim ] 


 ****     SMALL SIGNAL BIAS SOLUTION       TEMPERATURE =   27.000 DEG C


******************************************************************************



 NODE   VOLTAGE     NODE   VOLTAGE     NODE   VOLTAGE     NODE   VOLTAGE


(N00253)    0.0000 (N00319)   10.0000 (N00771)   10.0000 (N00826)    5.5200     

(N000030) 31.25E-06                   (N000032)   10.0000                       

(N004970)    3.0012                   (N004972)    7.9992                   




    VOLTAGE SOURCE CURRENTS
    NAME         CURRENT

    V_V3        -2.005E-02
    V_V1        -2.083E-07
    V_V2         0.000E+00

    TOTAL POWER DISSIPATION   2.01E-01  WATTS



          JOB CONCLUDED

          TOTAL JOB TIME             .58
