
**** 12/22/20 19:20:11 ********* PSpice 9.2 (Mar 2000) ******** ID# 1 ********

 ** Profile: "SCHEMATIC1-test"  [ C:\USERS\M R\DESKTOP\az madar elec\s07\pishgozaresh3\q3-SCHEMATIC1-test.sim ] 


 ****     CIRCUIT DESCRIPTION


******************************************************************************




** Creating circuit file "q3-SCHEMATIC1-test.sim.cir" 
** WARNING: THIS AUTOMATICALLY GENERATED FILE MAY BE OVERWRITTEN BY SUBSEQUENT SIMULATIONS

*Libraries: 
* Local Libraries :
* From [PSPICE NETLIST] section of C:\Program Files\Orcad\PSpice\PSpice.ini file:
.lib "nom.lib" 

*Analysis directives: 
.TRAN  0 10ms 0 
.PROBE V(*) I(*) W(*) D(*) NOISE(*) 
.INC ".\q3-SCHEMATIC1.net" 



**** INCLUDING q3-SCHEMATIC1.net ****
* source Q3
R_R1         N00093 N00109  10k  
V_V5         N00093 0  
+PULSE 1 -1 0 1n 1n 0.5m 1m
C_C2         0 N00109  100n   

**** RESUMING q3-SCHEMATIC1-test.sim.cir ****
.END

**** 12/22/20 19:20:11 ********* PSpice 9.2 (Mar 2000) ******** ID# 1 ********

 ** Profile: "SCHEMATIC1-test"  [ C:\USERS\M R\DESKTOP\az madar elec\s07\pishgozaresh3\q3-SCHEMATIC1-test.sim ] 


 ****     INITIAL TRANSIENT SOLUTION       TEMPERATURE =   27.000 DEG C


******************************************************************************



 NODE   VOLTAGE     NODE   VOLTAGE     NODE   VOLTAGE     NODE   VOLTAGE


(N00093)    1.0000 (N00109)    1.0000 




    VOLTAGE SOURCE CURRENTS
    NAME         CURRENT

    V_V5         0.000E+00

    TOTAL POWER DISSIPATION   0.00E+00  WATTS



          JOB CONCLUDED

          TOTAL JOB TIME             .09
