
**** 11/02/20 10:51:48 ********* PSpice 9.2 (Mar 2000) ******** ID# 1 ********

 ** Profile: "SCHEMATIC1-test1"  [ C:\Users\M R\Desktop\az madar elec\s03\q1\q1-SCHEMATIC1-test1.sim ] 


 ****     CIRCUIT DESCRIPTION


******************************************************************************




** Creating circuit file "q1-SCHEMATIC1-test1.sim.cir" 
** WARNING: THIS AUTOMATICALLY GENERATED FILE MAY BE OVERWRITTEN BY SUBSEQUENT SIMULATIONS

*Libraries: 
* Local Libraries :
* From [PSPICE NETLIST] section of C:\Program Files\Orcad\PSpice\PSpice.ini file:
.lib "nom.lib" 

*Analysis directives: 
.PROBE V(*) I(*) W(*) D(*) NOISE(*) 
.INC ".\q1-SCHEMATIC1.net" 



**** INCLUDING q1-SCHEMATIC1.net ****
* source Q1
R_R1         N00091 N00122  0.33k  
R_R2         N00122 0  0.33k  
R_R3         0 N00122  1k  
V_V1         N00091 0 15Vdc

**** RESUMING q1-SCHEMATIC1-test1.sim.cir ****
.END

**** 11/02/20 10:51:48 ********* PSpice 9.2 (Mar 2000) ******** ID# 1 ********

 ** Profile: "SCHEMATIC1-test1"  [ C:\Users\M R\Desktop\az madar elec\s03\q1\q1-SCHEMATIC1-test1.sim ] 


 ****     SMALL SIGNAL BIAS SOLUTION       TEMPERATURE =   27.000 DEG C


******************************************************************************



 NODE   VOLTAGE     NODE   VOLTAGE     NODE   VOLTAGE     NODE   VOLTAGE


(N00091)   15.0000 (N00122)    6.4378 




    VOLTAGE SOURCE CURRENTS
    NAME         CURRENT

    V_V1        -2.595E-02

    TOTAL POWER DISSIPATION   3.89E-01  WATTS



          JOB CONCLUDED

          TOTAL JOB TIME             .03
