
**** 01/21/21 12:11:43 ********* PSpice 9.2 (Mar 2000) ******** ID# 1 ********

 ** Profile: "SCHEMATIC1-test"  [ C:\USERS\M R\DESKTOP\AZ MADAR ELEC\s10\pish7\pish6-SCHEMATIC1-test.sim ] 


 ****     CIRCUIT DESCRIPTION


******************************************************************************




** Creating circuit file "pish6-SCHEMATIC1-test.sim.cir" 
** WARNING: THIS AUTOMATICALLY GENERATED FILE MAY BE OVERWRITTEN BY SUBSEQUENT SIMULATIONS

*Libraries: 
* Local Libraries :
* From [PSPICE NETLIST] section of C:\Program Files\Orcad\PSpice\PSpice.ini file:
.lib "nom.lib" 

*Analysis directives: 
.AC DEC 1000 0.001 30k
.PROBE V(*) I(*) W(*) D(*) NOISE(*) 
.INC ".\pish6-SCHEMATIC1.net" 



**** INCLUDING pish6-SCHEMATIC1.net ****
* source PISH6
X_U1         N00769 N00429 N00222 N000033 N00510 LM741
V_V4         N00617 0 DC 0Vdc AC 2Vac 
R_R3         0 N00769  10k  
R_R1         N00617 N00429  10k  
R_R2         N00429 N00510  10k  
V_V1         0 N000033 9
V_V2         N00222 0 9
C_C1         N00429 N00510  100n  

**** RESUMING pish6-SCHEMATIC1-test.sim.cir ****
.END

**** 01/21/21 12:11:43 ********* PSpice 9.2 (Mar 2000) ******** ID# 1 ********

 ** Profile: "SCHEMATIC1-test"  [ C:\USERS\M R\DESKTOP\AZ MADAR ELEC\s10\pish7\pish6-SCHEMATIC1-test.sim ] 


 ****     Diode MODEL PARAMETERS


******************************************************************************




               X_U1.x_lm741.dx X_U1.x_lm741.dy 
          IS  800.000000E-18  800.000000E-18 
          RS    1               1.000000E-03 
         CJO                   10.000000E-12 


**** 01/21/21 12:11:43 ********* PSpice 9.2 (Mar 2000) ******** ID# 1 ********

 ** Profile: "SCHEMATIC1-test"  [ C:\USERS\M R\DESKTOP\AZ MADAR ELEC\s10\pish7\pish6-SCHEMATIC1-test.sim ] 


 ****     BJT MODEL PARAMETERS


******************************************************************************




               X_U1.x_lm741.qx 
               NPN             
          IS  800.000000E-18 
          BF   93.75         
          NF    1            
          BR    1            
          NR    1            
          CN    2.42         
           D     .87         


**** 01/21/21 12:11:43 ********* PSpice 9.2 (Mar 2000) ******** ID# 1 ********

 ** Profile: "SCHEMATIC1-test"  [ C:\USERS\M R\DESKTOP\AZ MADAR ELEC\s10\pish7\pish6-SCHEMATIC1-test.sim ] 


 ****     SMALL SIGNAL BIAS SOLUTION       TEMPERATURE =   27.000 DEG C


******************************************************************************



 NODE   VOLTAGE     NODE   VOLTAGE     NODE   VOLTAGE     NODE   VOLTAGE


(N00222)    9.0000 (N00429)-778.0E-06 (N00510)-758.3E-06 (N00617)    0.0000     

(N00769)-797.3E-06 (N000033)   -9.0000                                          

(X_U1.x_lm741.6) 71.18E-09            (X_U1.x_lm741.7)-758.2E-06                

(X_U1.x_lm741.8)-758.2E-06            (X_U1.x_lm741.9)    0.0000                

(X_U1.x_lm741.10)    -.6085           (X_U1.x_lm741.11)    8.9603               

(X_U1.x_lm741.12)    8.9603           (X_U1.x_lm741.13)    -.5946               

(X_U1.x_lm741.14)    -.5946           (X_U1.x_lm741.53)    8.0000               

(X_U1.x_lm741.54)   -8.0000           (X_U1.x_lm741.90) 1.967E-06               

(X_U1.x_lm741.91)   40.0000           (X_U1.x_lm741.92)  -40.0000               

(X_U1.x_lm741.99)    0.0000           




    VOLTAGE SOURCE CURRENTS
    NAME         CURRENT

    V_V4        -7.780E-08
    V_V1        -1.006E-03
    V_V2        -1.006E-03
    X_U1.x_lm741.vb   7.118E-13
    X_U1.x_lm741.vc   8.002E-12
    X_U1.x_lm741.ve   8.185E-12
    X_U1.x_lm741.vlim   1.967E-09
    X_U1.x_lm741.vlp  -4.000E-11
    X_U1.x_lm741.vln  -4.000E-11

    TOTAL POWER DISSIPATION   1.81E-02  WATTS



          JOB CONCLUDED

          TOTAL JOB TIME             .69
